hour, t(sec), V1, VAngle1, V2, VAngle2, I1, IAngle1, I2, IAngle2
0,60,252.113,-30.0076,0,0,0.150309,-48.2024,0.150309,131.798
0,120,252.114,-30.0073,0,0,0.150308,-48.2022,0.150308,131.798
0,180,252.108,-30.0084,0,0,0.150311,-48.2032,0.150311,131.797
0,240,252.09,-30.0108,0,0,0.150322,-48.2056,0.150322,131.794
0,300,252.086,-30.0129,0,0,0.150324,-48.2076,0.150324,131.792
0,360,252.095,-30.0123,0,0,0.15032,-48.2072,0.15032,131.793
0,420,252.085,-30.0133,0,0,0.150325,-48.2081,0.150325,131.792
0,480,252.076,-30.0146,0,0,0.15033,-48.2094,0.15033,131.791
0,540,252.077,-30.0157,0,0,0.15033,-48.2105,0.15033,131.79
0,600,251.856,-30.0281,0,0,0.150462,-48.223,0.150462,131.777
0,660,252.054,-30.0174,0,0,0.150344,-48.2123,0.150344,131.788
0,720,252.055,-30.0188,0,0,0.150343,-48.2136,0.150343,131.786
0,780,252.06,-30.0185,0,0,0.15034,-48.2134,0.15034,131.787
0,840,252.061,-30.0194,0,0,0.15034,-48.2142,0.15034,131.786
0,900,252.061,-30.019,0,0,0.15034,-48.2139,0.15034,131.786
0,960,252.065,-30.0196,0,0,0.150338,-48.2144,0.150338,131.786
0,1020,252.073,-30.0334,0,0,0.150333,-48.2276,0.150333,131.772
0,1080,252.073,-30.0334,0,0,0.150333,-48.2283,0.150333,131.772
0,1140,252.073,-30.033,0,0,0.150333,-48.2279,0.150333,131.772
0,1200,252.062,-30.0188,0,0,0.150339,-48.2143,0.150339,131.786
0,1260,252.062,-30.0187,0,0,0.150339,-48.2136,0.150339,131.786
0,1320,252.062,-30.0188,0,0,0.150339,-48.2137,0.150339,131.786
0,1380,252.042,-30.0202,0,0,0.150351,-48.215,0.150351,131.785
0,1440,252.023,-30.0234,0,0,0.150362,-48.2181,0.150362,131.782
0,1500,252.027,-30.0236,0,0,0.15036,-48.2185,0.15036,131.781
0,1560,252.031,-30.0243,0,0,0.150358,-48.2191,0.150358,131.781
0,1620,252.031,-30.0238,0,0,0.150358,-48.2187,0.150358,131.781
0,1680,252.031,-30.0238,0,0,0.150358,-48.2187,0.150358,131.781
0,1740,252.02,-30.0259,0,0,0.150363,-48.2207,0.150363,131.779
0,1800,252.022,-30.0266,0,0,0.150363,-48.2215,0.150363,131.779
0,1860,252.014,-30.0244,0,0,0.150367,-48.2195,0.150367,131.781
0,1920,252.013,-30.0244,0,0,0.150368,-48.2193,0.150368,131.781
0,1980,252.014,-30.0243,0,0,0.150368,-48.2192,0.150368,131.781
0,2040,252.014,-30.0246,0,0,0.150367,-48.2194,0.150367,131.781
0,2100,252.014,-30.0243,0,0,0.150368,-48.2192,0.150368,131.781
0,2160,252.017,-30.0243,0,0,0.150366,-48.2192,0.150366,131.781
0,2220,252.006,-30.0252,0,0,0.150372,-48.2201,0.150372,131.78
0,2280,252.006,-30.0253,0,0,0.150372,-48.2202,0.150372,131.78
0,2340,252.006,-30.0253,0,0,0.150372,-48.2202,0.150372,131.78
0,2400,252.007,-30.0247,0,0,0.150372,-48.2196,0.150372,131.78
0,2460,252.007,-30.0247,0,0,0.150372,-48.2196,0.150372,131.78
0,2520,252.011,-30.0244,0,0,0.150369,-48.2193,0.150369,131.781
0,2580,252.002,-30.0246,0,0,0.150375,-48.2195,0.150375,131.781
0,2640,251.989,-30.0254,0,0,0.150382,-48.2203,0.150382,131.78
0,2700,252.017,-30.0253,0,0,0.150366,-48.2201,0.150366,131.78
0,2760,252.034,-30.0242,0,0,0.150356,-48.2191,0.150356,131.781
0,2820,252.044,-30.0238,0,0,0.15035,-48.2187,0.15035,131.781
0,2880,252.044,-30.0238,0,0,0.15035,-48.2187,0.15035,131.781
0,2940,252.029,-30.0245,0,0,0.801912,-48.2193,0.801912,131.781
0,3000,252.023,-30.026,0,0,0.801932,-48.2208,0.801932,131.779
0,3060,252.025,-30.025,0,0,0.801925,-48.2199,0.801925,131.78
0,3120,252.029,-30.0245,0,0,0.801915,-48.2194,0.801915,131.781
0,3180,252.028,-30.024,0,0,0.801914,-48.2189,0.801914,131.781
0,3240,252.032,-30.0247,0,0,0.801905,-48.2196,0.801905,131.78
0,3300,252.04,-30.0259,0,0,0.801879,-48.2207,0.801879,131.779
0,3360,252.011,-30.0285,0,0,0.801967,-48.2233,0.801967,131.777
0,3420,252.016,-30.0284,0,0,0.801954,-48.2233,0.801954,131.777
0,3480,252.019,-30.0277,0,0,0.801946,-48.2226,0.801946,131.777
0,3540,252.003,-30.0279,0,0,0.801995,-48.2229,0.801995,131.777
1,0,252.003,-30.0285,0,0,0.801996,-48.2233,0.801996,131.777
1,60,251.996,-30.0209,0,0,0.802015,-48.2161,0.802015,131.784
1,120,252.026,-30.0186,0,0,0.801928,-48.2136,0.801928,131.786
1,180,252.036,-30.0172,0,0,0.80189,-48.2121,0.80189,131.788
1,240,252.043,-30.0145,0,0,0.80187,-48.2095,0.80187,131.79
1,300,252.042,-30.0174,0,0,0.801872,-48.2121,0.801872,131.788
1,360,252.041,-30.0162,0,0,0.801874,-48.2111,0.801874,131.789
1,420,252.024,-30.0145,0,0,1.28643,-48.2095,1.28643,131.79
1,480,252.043,-30.013,0,0,1.28633,-48.208,1.28633,131.792
1,540,252.047,-30.0131,0,0,1.28631,-48.2079,1.28631,131.792
1,600,252.059,-30.0127,0,0,1.28625,-48.2075,1.28625,131.792
1,660,252.077,-30.0114,0,0,0.634727,-48.2063,0.634727,131.794
1,720,252.073,-30.0121,0,0,0.634737,-48.2069,0.634737,131.793
1,780,252.082,-30.0134,0,0,0.634716,-48.2082,0.634716,131.792
1,840,252.074,-30.0134,0,0,0.634735,-48.2083,0.634735,131.792
1,900,252.074,-30.0134,0,0,0.634736,-48.2083,0.634736,131.792
1,960,252.068,-30.0156,0,0,0.634747,-48.2103,0.634747,131.79
1,1020,252.066,-30.0163,0,0,0.634754,-48.2111,0.634754,131.789
1,1080,252.057,-30.0158,0,0,0.634777,-48.2108,0.634777,131.789
1,1140,252.038,-30.0173,0,0,0.634824,-48.2121,0.634824,131.788
1,1200,252.025,-30.0181,0,0,0.634856,-48.213,0.634856,131.787
1,1260,252.011,-30.0189,0,0,0.634892,-48.2138,0.634892,131.786
1,1320,251.984,-30.0212,0,0,0.634956,-48.216,0.634956,131.784
1,1380,251.988,-30.021,0,0,0.634952,-48.2159,0.634952,131.784
1,1440,251.979,-30.022,0,0,0.634972,-48.2168,0.634972,131.783
1,1500,252.002,-30.0201,0,0,0.150375,-48.2151,0.150375,131.785
1,1560,251.981,-30.0217,0,0,0.150387,-48.2165,0.150387,131.783
1,1620,251.996,-30.0188,0,0,0.150379,-48.2138,0.150379,131.786
1,1680,251.982,-30.0197,0,0,0.150386,-48.2146,0.150386,131.785
1,1740,251.965,-30.0202,0,0,0.150396,-48.2151,0.150396,131.785
1,1800,251.965,-30.0202,0,0,0.150397,-48.2151,0.150397,131.785
1,1860,251.939,-30.0209,0,0,0.150411,-48.2158,0.150411,131.784
1,1920,251.922,-30.0213,0,0,0.150422,-48.2162,0.150422,131.784
1,1980,251.922,-30.0213,0,0,0.150422,-48.2162,0.150422,131.784
1,2040,251.928,-30.021,0,0,0.150419,-48.2158,0.150419,131.784
1,2100,251.923,-30.0216,0,0,0.150422,-48.2164,0.150422,131.784
1,2160,251.933,-30.021,0,0,0.150416,-48.2159,0.150416,131.784
1,2220,251.925,-30.0207,0,0,0.150421,-48.2157,0.150421,131.784
1,2280,251.921,-30.0203,0,0,0.150423,-48.2152,0.150423,131.785
1,2340,251.912,-30.0196,0,0,0.150428,-48.2146,0.150428,131.785
1,2400,251.898,-30.0203,0,0,0.150436,-48.2152,0.150436,131.785
1,2460,251.923,-30.0189,0,0,0.150423,-48.2138,0.150423,131.786
1,2520,251.942,-30.0212,0,0,0.150411,-48.2159,0.150411,131.784
1,2580,251.937,-30.021,0,0,0.150413,-48.216,0.150413,131.784
1,2640,251.94,-30.0208,0,0,0.150412,-48.2157,0.150412,131.784
1,2700,251.939,-30.0209,0,0,0.150412,-48.2158,0.150412,131.784
1,2760,251.941,-30.0218,0,0,0.150411,-48.2166,0.150411,131.783
1,2820,251.963,-30.0204,0,0,0.150399,-48.2153,0.150399,131.785
1,2880,251.977,-30.0201,0,0,0.15039,-48.2149,0.15039,131.785
1,2940,251.993,-30.0183,0,0,0.15038,-48.2132,0.15038,131.787
1,3000,252.026,-30.0163,0,0,0.150361,-48.2112,0.150361,131.789
1,3060,252.007,-30.018,0,0,0.150372,-48.2128,0.150372,131.787
1,3120,252.009,-30.0178,0,0,0.150371,-48.2127,0.150371,131.787
1,3180,251.998,-30.0185,0,0,0.150377,-48.2134,0.150377,131.787
1,3240,252.011,-30.0177,0,0,0.150369,-48.2126,0.150369,131.787
1,3300,252.014,-30.0173,0,0,0.150368,-48.2122,0.150368,131.788
1,3360,252.014,-30.0173,0,0,0.150367,-48.2122,0.150367,131.788
1,3420,252.012,-30.0191,0,0,0.150369,-48.2138,0.150369,131.786
1,3480,252.028,-30.0173,0,0,0.150359,-48.2122,0.150359,131.788
1,3540,252.025,-30.0176,0,0,0.150361,-48.2124,0.150361,131.788
2,0,252.028,-30.0169,0,0,0.150359,-48.2118,0.150359,131.788
2,60,252.076,-30.0149,0,0,0.150332,-48.2097,0.150332,131.79
2,120,252.079,-30.0124,0,0,0.150329,-48.2074,0.150329,131.793
2,180,252.049,-30.0142,0,0,0.150346,-48.209,0.150346,131.791
2,240,252.031,-30.0155,0,0,0.150357,-48.2103,0.150357,131.79
2,300,252.031,-30.0155,0,0,0.150357,-48.2104,0.150357,131.79
2,360,252.032,-30.017,0,0,0.150357,-48.2118,0.150357,131.788
2,420,252.032,-30.017,0,0,0.150357,-48.2119,0.150357,131.788
2,480,252.032,-30.017,0,0,0.150357,-48.2119,0.150357,131.788
2,540,252.032,-30.0183,0,0,0.150357,-48.2131,0.150357,131.787
2,600,252.04,-30.017,0,0,0.150352,-48.212,0.150352,131.788
2,660,252.084,-30.0157,0,0,0.150327,-48.2105,0.150327,131.79
2,720,252.076,-30.0164,0,0,0.150331,-48.2113,0.150331,131.789
2,780,252.073,-30.018,0,0,0.150332,-48.2128,0.150332,131.787
2,840,252.06,-30.0183,0,0,0.15034,-48.2132,0.15034,131.787
2,900,252.046,-30.0192,0,0,0.150348,-48.2141,0.150348,131.786
2,960,252.046,-30.0192,0,0,0.150349,-48.2141,0.150349,131.786
2,1020,252.057,-30.0185,0,0,0.150342,-48.2134,0.150342,131.787
2,1080,252.053,-30.0191,0,0,0.150344,-48.2139,0.150344,131.786
2,1140,252.056,-30.018,0,0,0.150343,-48.2129,0.150343,131.787
2,1200,252.055,-30.0161,0,0,0.150343,-48.2111,0.150343,131.789
2,1260,252.061,-30.0162,0,0,0.15034,-48.2111,0.15034,131.789
2,1320,252.046,-30.0171,0,0,0.150348,-48.2119,0.150348,131.788
2,1380,252.046,-30.0184,0,0,0.150348,-48.2132,0.150348,131.787
2,1440,252.04,-30.0183,0,0,0.150352,-48.2133,0.150352,131.787
2,1500,252.065,-30.0164,0,0,0.150338,-48.2113,0.150338,131.789
2,1560,252.078,-30.0149,0,0,0.317363,-48.2099,0.317363,131.79
2,1620,252.068,-30.0129,0,0,0.801789,-48.2079,0.801789,131.792
2,1680,252.043,-30.0156,0,0,0.801865,-48.2104,0.801865,131.79
2,1740,252.063,-30.015,0,0,0.801808,-48.2099,0.801808,131.79
2,1800,252.059,-30.015,0,0,0.801817,-48.2099,0.801817,131.79
2,1860,252.036,-30.0141,0,0,1.45343,-48.209,1.45343,131.791
2,1920,252.024,-30.0152,0,0,1.45349,-48.21,1.45349,131.79
2,1980,252.026,-30.0136,0,0,1.45348,-48.2085,1.45348,131.791
2,2040,251.992,-30.016,0,0,1.45367,-48.2109,1.45367,131.789
2,2100,251.992,-30.016,0,0,1.45368,-48.2109,1.45368,131.789
2,2160,252.005,-30.0141,0,0,1.45361,-48.209,1.45361,131.791
2,2220,251.99,-30.0149,0,0,1.45369,-48.2098,1.45369,131.79
2,2280,251.99,-30.0142,0,0,1.45369,-48.2091,1.45369,131.791
2,2340,251.99,-30.0142,0,0,1.45369,-48.2091,1.45369,131.791
2,2400,251.98,-30.018,0,0,1.28665,-48.2127,1.28665,131.787
2,2460,251.974,-30.0167,0,0,1.45378,-48.2116,1.45378,131.788
2,2520,251.997,-30.0165,0,0,1.45366,-48.2113,1.45366,131.789
2,2580,251.996,-30.0152,0,0,1.45366,-48.2102,1.45366,131.79
2,2640,251.999,-30.0135,0,0,1.70427,-48.2085,1.70427,131.791
2,2700,252.013,-30.0137,0,0,1.21965,-48.2085,1.21965,131.791
2,2760,251.997,-30.0155,0,0,1.21973,-48.2102,1.21973,131.79
2,2820,252.002,-30.0157,0,0,1.21971,-48.2105,1.21971,131.789
2,2880,252.03,-30.0127,0,0,1.05251,-48.2076,1.05251,131.792
2,2940,252.016,-30.0128,0,0,1.05256,-48.2077,1.05256,131.792
2,3000,252.034,-30.0117,0,0,0.801899,-48.2067,0.801899,131.793
2,3060,252.026,-30.013,0,0,0.80192,-48.2077,0.80192,131.792
2,3120,252.033,-30.0117,0,0,1.0525,-48.2066,1.0525,131.793
2,3180,252.056,-30.0113,0,0,0.400914,-48.2062,0.400914,131.794
2,3240,252.056,-30.0113,0,0,0.400914,-48.2062,0.400914,131.794
2,3300,252.038,-30.0127,0,0,0.40094,-48.2075,0.40094,131.793
2,3360,252.013,-30.0146,0,0,0.150368,-48.2095,0.150368,131.791
2,3420,252.013,-30.0155,0,0,0.150368,-48.2104,0.150368,131.79
2,3480,251.997,-30.0165,0,0,0.150377,-48.2113,0.150377,131.789
2,3540,251.999,-30.0158,0,0,0.52632,-48.2107,0.52632,131.789
3,0,251.998,-30.0151,0,0,0.526319,-48.21,0.526319,131.79
3,60,251.989,-30.017,0,0,0.526338,-48.2118,0.526338,131.788
3,120,252.001,-30.0137,0,0,0.526315,-48.2088,0.526315,131.791
3,180,251.994,-30.0146,0,0,0.797847,-48.2094,0.797847,131.791
3,240,251.975,-30.0169,0,0,1.04856,-48.2117,1.04856,131.788
3,300,251.965,-30.0183,0,0,1.34104,-48.2131,1.34104,131.787
3,360,251.954,-30.0202,0,0,1.3411,-48.2149,1.3411,131.785
3,420,251.951,-30.0201,0,0,1.34111,-48.215,1.34111,131.785
3,480,251.97,-30.0197,0,0,1.34101,-48.2146,1.34101,131.785
3,540,251.961,-30.0226,0,0,1.34106,-48.2173,1.34106,131.783
3,600,251.965,-30.0224,0,0,1.5917,-48.2172,1.5917,131.783
3,660,251.956,-30.0233,0,0,1.34108,-48.2181,1.34108,131.782
3,720,251.936,-30.0253,0,0,1.34119,-48.2201,1.34119,131.78
3,780,251.936,-30.0253,0,0,1.34119,-48.2202,1.34119,131.78
3,840,251.905,-30.0277,0,0,1.34135,-48.2224,1.34135,131.778
3,900,251.919,-30.0254,0,0,1.34128,-48.2204,1.34128,131.78
3,960,251.925,-30.0251,0,0,1.34125,-48.22,1.34125,131.78
3,1020,251.926,-30.025,0,0,1.29946,-48.2199,1.29946,131.78
3,1080,251.963,-30.0208,0,0,1.29928,-48.2159,1.29928,131.784
3,1140,251.955,-30.0201,0,0,1.29931,-48.215,1.29931,131.785
3,1200,251.955,-30.0205,0,0,1.29931,-48.2153,1.29931,131.785
3,1260,251.953,-30.0222,0,0,1.29932,-48.2169,1.29932,131.783
3,1320,251.95,-30.0235,0,0,1.29934,-48.2183,1.29934,131.782
3,1380,251.95,-30.0224,0,0,1.29934,-48.2173,1.29934,131.783
3,1440,251.934,-30.0234,0,0,1.29942,-48.2182,1.29942,131.782
3,1500,251.97,-30.0219,0,0,1.29925,-48.2168,1.29925,131.783
3,1560,251.986,-30.0205,0,0,1.09029,-48.2154,1.09029,131.785
3,1620,251.995,-30.0424,0,0,1.09025,-48.2372,1.09025,131.763
3,1680,251.995,-30.0436,0,0,1.09025,-48.2384,1.09025,131.762
3,1740,251.996,-30.0444,0,0,1.09025,-48.2392,1.09025,131.761
3,1800,251.995,-30.0436,0,0,1.09025,-48.2385,1.09025,131.761
3,1860,252,-30.0431,0,0,1.09023,-48.238,1.09023,131.762
3,1920,252.011,-30.0437,0,0,1.09018,-48.2385,1.09018,131.761
3,1980,252.03,-30.0438,0,0,1.0901,-48.2386,1.0901,131.761
3,2040,252.038,-30.0434,0,0,1.09006,-48.2382,1.09006,131.762
3,2100,252.038,-30.0422,0,0,1.09006,-48.2372,1.09006,131.763
3,2160,252.047,-30.0421,0,0,1.25708,-48.2369,1.25708,131.763
3,2220,252.056,-30.042,0,0,1.00646,-48.2369,1.00646,131.763
3,2280,252.078,-30.0403,0,0,1.00638,-48.2353,1.00638,131.765
3,2340,252.087,-30.0385,0,0,1.00634,-48.2336,1.00634,131.766
3,2400,252.084,-30.0389,0,0,1.00635,-48.2338,1.00635,131.766
3,2460,252.089,-30.0381,0,0,1.00633,-48.2331,1.00633,131.767
3,2520,252.074,-30.0391,0,0,1.00638,-48.2339,1.00638,131.766
3,2580,252.058,-30.0392,0,0,1.00645,-48.2341,1.00645,131.766
3,2640,252.071,-30.0372,0,0,1.25696,-48.2322,1.25696,131.768
3,2700,252.067,-30.037,0,0,1.25697,-48.2319,1.25697,131.768
3,2760,252.087,-30.0354,0,0,1.25688,-48.2303,1.25688,131.77
3,2820,252.07,-30.0128,0,0,1.25696,-48.2077,1.25696,131.792
3,2880,252.078,-30.0119,0,0,1.25692,-48.2068,1.25692,131.793
3,2940,252.087,-30.0118,0,0,0.985456,-48.2066,0.985456,131.793
3,3000,252.087,-30.0106,0,0,0.985457,-48.2055,0.985457,131.794
3,3060,252.09,-30.0102,0,0,0.985448,-48.2051,0.985448,131.795
3,3120,252.087,-30.0093,0,0,0.985458,-48.2042,0.985458,131.796
3,3180,252.081,-30.0085,0,0,0.985478,-48.2034,0.985478,131.797
3,3240,252.088,-30.0075,0,0,0.985456,-48.2024,0.985456,131.798
3,3300,252.091,-30.0085,0,0,0.985443,-48.2033,0.985443,131.797
3,3360,252.055,-30.0115,0,0,0.985575,-48.2062,0.985575,131.794
3,3420,252.056,-30.0127,0,0,0.98558,-48.2075,0.98558,131.792
3,3480,252.03,-30.014,0,0,1.15274,-48.2089,1.15274,131.791
3,3540,252.013,-30.0122,0,0,1.80442,-48.2071,1.80442,131.793
4,0,252.007,-30.0115,0,0,1.97154,-48.2064,1.97154,131.794
4,60,251.989,-30.0143,0,0,0.802033,-48.2092,0.802033,131.791
4,120,251.983,-30.0151,0,0,0.802058,-48.21,0.802058,131.79
4,180,251.994,-30.0146,0,0,0.802024,-48.2094,0.802024,131.791
4,240,252.004,-30.0131,0,0,0.801996,-48.2081,0.801996,131.792
4,300,252.013,-30.0126,0,0,0.801966,-48.2074,0.801966,131.793
4,360,252.01,-30.0145,0,0,0.801971,-48.2092,0.801971,131.791
4,420,251.977,-30.0158,0,0,1.28666,-48.2106,1.28666,131.789
4,480,251.959,-30.0185,0,0,1.28675,-48.2132,1.28675,131.787
4,540,251.961,-30.0181,0,0,1.28675,-48.213,1.28675,131.787
4,600,251.961,-30.0181,0,0,1.28675,-48.213,1.28675,131.787
4,660,251.964,-30.0178,0,0,1.28674,-48.2127,1.28674,131.787
4,720,251.951,-30.0188,0,0,1.2868,-48.2136,1.2868,131.786
4,780,251.934,-30.0201,0,0,1.28688,-48.2149,1.28688,131.785
4,840,251.942,-30.0215,0,0,1.28685,-48.2163,1.28685,131.784
4,900,251.96,-30.0204,0,0,1.28676,-48.2153,1.28676,131.785
4,960,251.964,-30.0212,0,0,1.28674,-48.2161,1.28674,131.784
4,1020,251.96,-30.0208,0,0,1.28676,-48.2157,1.28676,131.784
4,1080,251.978,-30.0206,0,0,1.28667,-48.2154,1.28667,131.785
4,1140,251.978,-30.0206,0,0,1.28666,-48.2155,1.28666,131.785
4,1200,251.998,-30.0206,0,0,1.28656,-48.2154,1.28656,131.785
4,1260,252.032,-30.0201,0,0,0.634841,-48.215,0.634841,131.785
4,1320,252.014,-30.0212,0,0,0.634885,-48.2161,0.634885,131.784
4,1380,252.028,-30.0195,0,0,0.634852,-48.2145,0.634852,131.786
4,1440,252.029,-30.019,0,0,0.634847,-48.2139,0.634847,131.786
4,1500,252.001,-30.0222,0,0,0.150374,-48.217,0.150374,131.783
4,1560,251.995,-30.022,0,0,0.150378,-48.2168,0.150378,131.783
4,1620,251.975,-30.0232,0,0,0.15039,-48.2181,0.15039,131.782
4,1680,251.974,-30.0217,0,0,0.150391,-48.2167,0.150391,131.783
4,1740,251.973,-30.0231,0,0,0.150392,-48.2179,0.150392,131.782
4,1800,251.983,-30.023,0,0,0.150387,-48.2178,0.150387,131.782
4,1860,251.967,-30.0238,0,0,0.150395,-48.2186,0.150395,131.781
4,1920,251.974,-30.0227,0,0,0.150392,-48.2177,0.150392,131.782
4,1980,251.978,-30.0234,0,0,0.150389,-48.2182,0.150389,131.782
4,2040,251.978,-30.0221,0,0,0.150389,-48.217,0.150389,131.783
4,2100,251.993,-30.0223,0,0,0.15038,-48.2171,0.15038,131.783
4,2160,251.994,-30.023,0,0,0.15038,-48.2178,0.15038,131.782
4,2220,251.988,-30.0233,0,0,0.150383,-48.2182,0.150383,131.782
4,2280,251.96,-30.0237,0,0,0.150399,-48.2186,0.150399,131.781
4,2340,251.98,-30.0221,0,0,0.150389,-48.2171,0.150389,131.783
4,2400,251.972,-30.0222,0,0,0.150393,-48.2171,0.150393,131.783
4,2460,251.972,-30.0222,0,0,0.150393,-48.217,0.150393,131.783
4,2520,251.984,-30.0226,0,0,0.150386,-48.2174,0.150386,131.783
4,2580,251.993,-30.0213,0,0,0.150381,-48.2162,0.150381,131.784
4,2640,252.029,-30.0191,0,0,0.15036,-48.214,0.15036,131.786
4,2700,252.023,-30.0191,0,0,0.150362,-48.214,0.150362,131.786
4,2760,252.023,-30.0191,0,0,0.150362,-48.2139,0.150362,131.786
4,2820,252.026,-30.0197,0,0,0.150361,-48.2145,0.150361,131.785
4,2880,252.034,-30.0184,0,0,0.150356,-48.2133,0.150356,131.787
4,2940,252.064,-30.0144,0,0,0.150338,-48.2094,0.150338,131.791
4,3000,252.061,-30.0145,0,0,0.150339,-48.2094,0.150339,131.791
4,3060,252.058,-30.0148,0,0,0.150341,-48.2097,0.150341,131.79
4,3120,252.057,-30.0136,0,0,0.150342,-48.2085,0.150342,131.791
4,3180,252.053,-30.0141,0,0,0.150344,-48.2089,0.150344,131.791
4,3240,252.036,-30.0151,0,0,0.150354,-48.21,0.150354,131.79
4,3300,252.019,-30.0159,0,0,0.150364,-48.2108,0.150364,131.789
4,3360,252.019,-30.0159,0,0,0.150365,-48.2107,0.150365,131.789
4,3420,252.018,-30.0155,0,0,0.150365,-48.2104,0.150365,131.79
4,3480,252.013,-30.0155,0,0,0.150368,-48.2104,0.150368,131.79
4,3540,252.016,-30.0149,0,0,0.150366,-48.2098,0.150366,131.79
5,0,252.057,-30.0121,0,0,0.150343,-48.2071,0.150343,131.793
5,60,252.074,-30.0099,0,0,0.150332,-48.2049,0.150332,131.795
5,120,252.069,-30.0095,0,0,0.150334,-48.2044,0.150334,131.796
5,180,252.064,-30.0099,0,0,0.150338,-48.2047,0.150338,131.795
5,240,252.069,-30.0091,0,0,0.150335,-48.204,0.150335,131.796
5,300,252.061,-30.0089,0,0,0.634769,-48.2038,0.634769,131.796
5,360,252.059,-30.0092,0,0,0.634772,-48.204,0.634772,131.796
5,420,252.053,-30.0116,0,0,0.634787,-48.2064,0.634787,131.794
5,480,252.051,-30.0124,0,0,0.634791,-48.2072,0.634791,131.793
5,540,252.061,-30.0126,0,0,0.634768,-48.2074,0.634768,131.793
5,600,252.041,-30.0142,0,0,0.634816,-48.2091,0.634816,131.791
5,660,252.058,-30.0146,0,0,0.634776,-48.2094,0.634776,131.791
5,720,252.058,-30.014,0,0,0.634774,-48.2089,0.634774,131.791
5,780,252.04,-30.0146,0,0,0.634816,-48.2095,0.634816,131.791
5,840,252.039,-30.0148,0,0,0.634821,-48.2096,0.634821,131.79
5,900,252.029,-30.0135,0,0,0.634846,-48.2084,0.634846,131.792
5,960,252.051,-30.0124,0,0,0.634793,-48.2073,0.634793,131.793
5,1020,252.052,-30.0121,0,0,0.634791,-48.207,0.634791,131.793
5,1080,252.053,-30.0128,0,0,0.634787,-48.2076,0.634787,131.792
5,1140,252.056,-30.0135,0,0,0.634779,-48.2083,0.634779,131.792
5,1200,252.056,-30.0144,0,0,0.634779,-48.2092,0.634779,131.791
5,1260,252.052,-30.0162,0,0,0.63479,-48.211,0.63479,131.789
5,1320,252.052,-30.0163,0,0,0.634791,-48.2111,0.634791,131.789
5,1380,252.065,-30.0163,0,0,0.150337,-48.2112,0.150337,131.789
5,1440,252.054,-30.0178,0,0,0.150344,-48.2126,0.150344,131.787
