hour, t(sec), V1, VAngle1, V2, VAngle2, I1, IAngle1, I2, IAngle2
0,60,251.946,-150.01,0,0,0.19637,-168.206,0.19637,11.7944
0,120,251.934,-150.01,0,0,0.196375,-168.205,0.196375,11.795
0,180,251.945,-150.012,0,0,0.196367,-168.206,0.196367,11.7936
0,240,251.966,-150.013,0,0,0.196352,-168.208,0.196352,11.7924
0,300,251.968,-150.007,0,0,0.19635,-168.203,0.19635,11.7974
0,360,251.931,-150.003,0,0,0.196377,-168.198,0.196377,11.8022
0,420,251.939,-150.003,0,0,0.196372,-168.198,0.196372,11.8019
0,480,251.956,-150.006,0,0,0.196359,-168.201,0.196359,11.799
0,540,251.975,-150.003,0,0,0.196345,-168.198,0.196345,11.8023
0,600,252.075,-150.13,0,0,0.196265,-168.325,0.196265,11.6755
0,660,252.034,-150.012,0,0,0.196298,-168.207,0.196298,11.7925
0,720,252.054,-150.008,0,0,0.196283,-168.203,0.196283,11.7967
0,780,252.052,-150.005,0,0,0.196284,-168.201,0.196284,11.7995
0,840,252.069,-150.002,0,0,0.196271,-168.197,0.196271,11.803
0,900,252.062,-150.003,0,0,0.196275,-168.198,0.196275,11.8018
0,960,252.07,-150,0,0,0.19627,-168.195,0.19627,11.8053
0,1020,252.184,-149.97,0,0,0.19619,-168.167,0.19619,11.8326
0,1080,252.185,-149.97,0,0,0.19618,-168.165,0.19618,11.8348
0,1140,252.177,-149.972,0,0,0.196186,-168.167,0.196186,11.8333
0,1200,252.041,-150.005,0,0,0.196283,-168.197,0.196283,11.8027
0,1260,252.04,-150.005,0,0,0.196293,-168.2,0.196293,11.8005
0,1320,252.042,-150.004,0,0,0.196292,-168.199,0.196292,11.8007
0,1380,252.047,-150.009,0,0,0.196288,-168.204,0.196288,11.7964
0,1440,252.12,-150.011,0,0,0.196234,-168.205,0.196234,11.7946
0,1500,252.078,-150.009,0,0,0.196262,-168.205,0.196262,11.7955
0,1560,252.094,-150.004,0,0,0.196252,-168.199,0.196252,11.8007
0,1620,252.093,-150.004,0,0,0.196251,-168.199,0.196251,11.8009
0,1680,252.093,-150.004,0,0,0.196251,-168.199,0.196251,11.8009
0,1740,252.118,-150.01,0,0,0.196234,-168.204,0.196234,11.7958
0,1800,252.106,-150.007,0,0,0.196242,-168.203,0.196242,11.7975
0,1860,252.055,-150.021,0,0,0.196278,-168.215,0.196278,11.7848
0,1920,252.067,-150.022,0,0,0.196272,-168.216,0.196272,11.7836
0,1980,252.067,-150.021,0,0,0.196272,-168.216,0.196272,11.7839
0,2040,252.069,-150.021,0,0,0.19627,-168.216,0.19627,11.7844
0,2100,252.066,-150.021,0,0,0.196273,-168.216,0.196273,11.7838
0,2160,252.025,-150.019,0,0,0.196304,-168.214,0.196304,11.7857
0,2220,252.032,-150.023,0,0,0.1963,-168.217,0.1963,11.7829
0,2280,252.027,-150.023,0,0,0.196302,-168.218,0.196302,11.7817
0,2340,252.027,-150.023,0,0,0.196303,-168.218,0.196303,11.7816
0,2400,252.02,-150.032,0,0,0.196308,-168.227,0.196308,11.7735
0,2460,252.023,-150.031,0,0,0.196306,-168.226,0.196306,11.7737
0,2520,252.006,-150.031,0,0,0.196319,-168.226,0.196319,11.7738
0,2580,252.007,-150.036,0,0,0.196318,-168.231,0.196318,11.769
0,2640,252.026,-150.04,0,0,0.196305,-168.235,0.196305,11.7651
0,2700,252.037,-150.031,0,0,0.196296,-168.226,0.196296,11.7736
0,2760,252.031,-150.025,0,0,0.1963,-168.22,0.1963,11.7798
0,2820,252.042,-150.02,0,0,0.196292,-168.215,0.196292,11.7846
0,2880,252.042,-150.02,0,0,0.196291,-168.215,0.196291,11.785
0,2940,252.052,-150.015,0,0,0.196284,-168.21,0.196284,11.79
0,3000,251.984,-150.012,0,0,0.196336,-168.207,0.196336,11.7926
0,3060,251.942,-150.013,0,0,0.196367,-168.208,0.196367,11.7922
0,3120,251.874,-150.011,0,0,0.196421,-168.206,0.196421,11.7938
0,3180,251.869,-150.012,0,0,0.196426,-168.207,0.196426,11.7932
0,3240,251.816,-150.008,0,0,0.196467,-168.203,0.196467,11.7969
0,3300,251.858,-149.996,0,0,0.196437,-168.192,0.196437,11.808
0,3360,251.861,-150.012,0,0,0.196433,-168.206,0.196433,11.7945
0,3420,251.861,-150.008,0,0,0.196432,-168.203,0.196432,11.7966
0,3480,251.822,-150.008,0,0,0.196462,-168.203,0.196462,11.7966
0,3540,251.609,-150.011,0,0,0.196625,-168.205,0.196625,11.7947
1,0,251.616,-150.009,0,0,0.196624,-168.204,0.196624,11.7957
1,60,251.566,-150.029,0,0,0.196658,-168.222,0.196658,11.7777
1,120,251.451,-150.012,0,0,0.196749,-168.208,0.196749,11.792
1,180,251.436,-150.012,0,0,0.196764,-168.207,0.196764,11.7926
1,240,251.267,-150.014,0,0,0.196891,-168.209,0.196891,11.7911
1,300,251.339,-150.007,0,0,0.196845,-168.202,0.196845,11.7983
1,360,251.313,-150.012,0,0,0.19686,-168.206,0.19686,11.7937
1,420,251.287,-150.018,0,0,0.196879,-168.212,0.196879,11.788
1,480,251.238,-150.008,0,0,0.196918,-168.204,0.196918,11.7962
1,540,251.265,-150,0,0,0.1969,-168.195,0.1969,11.8052
1,600,251.323,-149.99,0,0,0.196855,-168.185,0.196855,11.8147
1,660,251.312,-149.993,0,0,0.196861,-168.188,0.196861,11.8122
1,720,251.412,-149.996,0,0,0.196786,-168.191,0.196786,11.8092
1,780,251.374,-149.988,0,0,0.196813,-168.183,0.196813,11.8168
1,840,251.371,-149.991,0,0,0.196815,-168.186,0.196815,11.8139
1,900,251.371,-149.992,0,0,0.196815,-168.186,0.196815,11.8136
1,960,251.524,-149.986,0,0,0.196701,-168.181,0.196701,11.819
1,1020,251.596,-149.993,0,0,0.196641,-168.187,0.196641,11.8128
1,1080,251.391,-149.994,0,0,0.196793,-168.189,0.196793,11.8113
1,1140,251.523,-150.002,0,0,0.196699,-168.197,0.196699,11.8034
1,1200,251.526,-150.006,0,0,0.196694,-168.201,0.196694,11.7993
1,1260,251.528,-150.009,0,0,0.196692,-168.203,0.196692,11.7967
1,1320,251.635,-150.018,0,0,0.196612,-168.212,0.196612,11.7877
1,1380,251.634,-150.017,0,0,0.19661,-168.212,0.19661,11.7884
1,1440,251.724,-150.021,0,0,0.196542,-168.215,0.196542,11.7849
1,1500,251.673,-150.021,0,0,0.196577,-168.215,0.196577,11.7845
1,1560,251.689,-150.034,0,0,0.196568,-168.229,0.196568,11.7715
1,1620,251.641,-150.035,0,0,0.196602,-168.23,0.196602,11.7705
1,1680,251.65,-150.044,0,0,0.196597,-168.239,0.196597,11.7613
1,1740,251.632,-150.054,0,0,0.196611,-168.249,0.196611,11.7514
1,1800,251.632,-150.054,0,0,0.196611,-168.249,0.196611,11.7507
1,1860,251.637,-150.073,0,0,0.196607,-168.267,0.196607,11.7332
1,1920,251.635,-150.081,0,0,0.196608,-168.275,0.196608,11.7252
1,1980,251.635,-150.081,0,0,0.196609,-168.275,0.196609,11.7245
1,2040,251.633,-150.078,0,0,0.196611,-168.273,0.196611,11.7271
1,2100,251.701,-150.078,0,0,0.19656,-168.273,0.19656,11.7271
1,2160,251.699,-150.076,0,0,0.196559,-168.271,0.196559,11.7293
1,2220,251.489,-150.074,0,0,0.975217,-168.269,0.975217,11.731
1,2280,251.603,-150.085,0,0,0.974815,-168.279,0.974815,11.7208
1,2340,251.601,-150.093,0,0,0.974806,-168.287,0.974806,11.713
1,2400,251.686,-150.1,0,0,0.974493,-168.294,0.974493,11.7059
1,2460,251.677,-150.09,0,0,0.974515,-168.285,0.974515,11.7146
1,2520,251.718,-150.074,0,0,0.974369,-168.27,0.974369,11.7302
1,2580,251.723,-150.079,0,0,0.974337,-168.274,0.974337,11.7262
1,2640,251.719,-150.075,0,0,0.974351,-168.27,0.974351,11.7296
1,2700,251.72,-150.076,0,0,0.97435,-168.271,0.97435,11.7295
1,2760,251.721,-150.074,0,0,0.974349,-168.269,0.974349,11.7309
1,2820,251.712,-150.065,0,0,0.974378,-168.26,0.974378,11.7397
1,2880,251.814,-150.053,0,0,0.974001,-168.249,0.974001,11.7513
1,2940,251.809,-150.041,0,0,0.974003,-168.237,0.974003,11.7633
1,3000,251.794,-150.025,0,0,0.974062,-168.221,0.974062,11.7794
1,3060,251.824,-150.028,0,0,0.973954,-168.222,0.973954,11.7776
1,3120,251.823,-150.027,0,0,0.973952,-168.222,0.973952,11.7782
1,3180,251.824,-150.029,0,0,0.973946,-168.224,0.973946,11.7763
1,3240,251.82,-150.025,0,0,0.97396,-168.22,0.97396,11.7802
1,3300,251.774,-150.023,0,0,0.974132,-168.218,0.974132,11.7816
1,3360,251.775,-150.023,0,0,0.974136,-168.218,0.974136,11.7819
1,3420,251.843,-150.027,0,0,0.973888,-168.222,0.973888,11.7784
1,3480,251.823,-150.027,0,0,0.973945,-168.222,0.973945,11.7779
1,3540,251.892,-150.034,0,0,0.196409,-168.229,0.196409,11.7709
2,0,251.827,-150.032,0,0,0.196458,-168.227,0.196458,11.773
2,60,251.826,-150.007,0,0,0.196461,-168.204,0.196461,11.7962
2,120,251.769,-150.011,0,0,0.196501,-168.206,0.196501,11.7942
2,180,251.776,-150.02,0,0,0.196499,-168.214,0.196499,11.7863
2,240,251.797,-150.028,0,0,0.196483,-168.223,0.196483,11.7773
2,300,251.797,-150.028,0,0,0.196482,-168.223,0.196482,11.7767
2,360,251.824,-150.023,0,0,0.196463,-168.218,0.196463,11.7816
2,420,251.824,-150.023,0,0,0.196462,-168.218,0.196462,11.7819
2,480,251.824,-150.023,0,0,0.196462,-168.218,0.196462,11.7819
2,540,251.865,-150.015,0,0,0.196432,-168.21,0.196432,11.7898
2,600,251.675,-150.009,0,0,0.196572,-168.204,0.196572,11.7955
2,660,251.688,-149.989,0,0,0.196569,-168.185,0.196569,11.815
2,720,251.653,-149.991,0,0,0.196594,-168.186,0.196594,11.8139
2,780,251.711,-149.99,0,0,0.196552,-168.185,0.196552,11.815
2,840,251.68,-149.996,0,0,0.196573,-168.19,0.196573,11.8097
2,900,251.69,-150.007,0,0,0.196566,-168.202,0.196566,11.7983
2,960,251.69,-150.007,0,0,0.196566,-168.202,0.196566,11.7977
2,1020,251.685,-150.002,0,0,0.19657,-168.197,0.19657,11.803
2,1080,251.754,-150.003,0,0,0.196518,-168.198,0.196518,11.8018
2,1140,251.713,-150.006,0,0,0.196546,-168.201,0.196546,11.7993
2,1200,251.683,-150.012,0,0,0.196569,-168.206,0.196569,11.7937
2,1260,251.78,-150.011,0,0,0.196498,-168.206,0.196498,11.7937
2,1320,251.798,-150.018,0,0,0.196482,-168.212,0.196482,11.788
2,1380,251.825,-150.012,0,0,0.196462,-168.208,0.196462,11.7924
2,1440,251.744,-150.013,0,0,0.196521,-168.208,0.196521,11.7917
2,1500,251.676,-150.007,0,0,0.196574,-168.203,0.196574,11.7973
2,1560,251.599,-149.997,0,0,0.196635,-168.192,0.196635,11.8078
2,1620,251.444,-149.996,0,0,0.196753,-168.191,0.196753,11.809
2,1680,251.472,-150.011,0,0,0.196737,-168.205,0.196737,11.7946
2,1740,251.391,-149.994,0,0,0.196798,-168.19,0.196798,11.8099
2,1800,251.513,-150,0,0,0.196706,-168.195,0.196706,11.8053
2,1860,251.473,-150.01,0,0,0.196734,-168.204,0.196734,11.796
2,1920,251.536,-150.013,0,0,0.196689,-168.208,0.196689,11.7921
2,1980,251.475,-150.018,0,0,0.196732,-168.213,0.196732,11.7874
2,2040,251.535,-150.034,0,0,0.196689,-168.228,0.196689,11.7723
2,2100,251.535,-150.034,0,0,0.196687,-168.229,0.196687,11.7711
2,2160,251.541,-150.033,0,0,0.196682,-168.228,0.196682,11.7716
2,2220,251.533,-150.04,0,0,0.196688,-168.235,0.196688,11.7654
2,2280,251.52,-150.043,0,0,0.196698,-168.237,0.196698,11.7625
2,2340,251.52,-150.043,0,0,0.196699,-168.238,0.196699,11.7624
2,2400,251.565,-150.041,0,0,0.196667,-168.236,0.196667,11.7642
2,2460,251.547,-150.045,0,0,0.196676,-168.239,0.196676,11.7608
2,2520,251.584,-150.031,0,0,0.196651,-168.226,0.196651,11.7735
2,2580,251.557,-150.036,0,0,0.196668,-168.231,0.196668,11.7694
2,2640,251.415,-150.034,0,0,0.196777,-168.229,0.196777,11.7706
2,2700,251.481,-150.035,0,0,0.196731,-168.23,0.196731,11.7698
2,2760,251.634,-150.04,0,0,0.196614,-168.235,0.196614,11.7654
2,2820,251.568,-150.037,0,0,0.19666,-168.232,0.19666,11.7681
2,2880,251.53,-150.032,0,0,0.196689,-168.228,0.196689,11.7722
2,2940,251.593,-150.043,0,0,0.196643,-168.237,0.196643,11.7628
2,3000,251.497,-150.031,0,0,0.196714,-168.227,0.196714,11.7732
2,3060,251.62,-150.034,0,0,0.196624,-168.229,0.196624,11.7713
2,3120,251.448,-150.02,0,0,0.975385,-168.216,0.975385,11.7844
2,3180,251.448,-150.019,0,0,0.975404,-168.214,0.975404,11.7862
2,3240,251.448,-150.019,0,0,0.975405,-168.214,0.975405,11.7863
2,3300,251.492,-150.024,0,0,0.975239,-168.218,0.975239,11.782
2,3360,251.5,-150.033,0,0,0.975201,-168.227,0.975201,11.7728
2,3420,251.512,-150.031,0,0,0.975159,-168.226,0.975159,11.774
2,3480,251.515,-150.035,0,0,0.975144,-168.229,0.975144,11.7706
2,3540,251.509,-150.028,0,0,0.975167,-168.223,0.975167,11.7765
3,0,251.485,-150.033,0,0,0.975253,-168.228,0.975253,11.7725
3,60,251.51,-150.032,0,0,0.975171,-168.227,0.975171,11.773
3,120,251.485,-150.033,0,0,0.975248,-168.228,0.975248,11.772
3,180,251.471,-150.03,0,0,0.975314,-168.225,0.975314,11.7751
3,240,251.501,-150.031,0,0,0.975206,-168.226,0.975206,11.7743
3,300,251.514,-150.029,0,0,0.97515,-168.224,0.97515,11.7761
3,360,251.657,-150.031,0,0,0.974616,-168.226,0.974616,11.7744
3,420,251.655,-150.03,0,0,0.974602,-168.225,0.974602,11.7749
3,480,251.666,-150.02,0,0,0.974561,-168.216,0.974561,11.7843
3,540,251.828,-150.019,0,0,0.973959,-168.214,0.973959,11.7863
3,600,251.913,-150.019,0,0,0.973614,-168.214,0.973614,11.7865
3,660,251.921,-150.027,0,0,0.973573,-168.221,0.973573,11.7786
3,720,251.938,-150.029,0,0,0.973509,-168.224,0.973509,11.7759
3,780,251.938,-150.029,0,0,0.973505,-168.224,0.973505,11.7756
3,840,252.112,-150.047,0,0,0.19624,-168.241,0.19624,11.7593
3,900,252.087,-150.047,0,0,0.196254,-168.242,0.196254,11.7579
3,960,251.97,-150.043,0,0,0.196346,-168.238,0.196346,11.762
3,1020,251.976,-150.041,0,0,0.196343,-168.236,0.196343,11.7636
3,1080,251.843,-150.033,0,0,0.196442,-168.229,0.196442,11.7714
3,1140,251.829,-150.036,0,0,0.196456,-168.23,0.196456,11.7698
3,1200,251.837,-150.034,0,0,0.196451,-168.229,0.196451,11.7711
3,1260,251.909,-150.026,0,0,0.196398,-168.221,0.196398,11.7786
3,1320,251.885,-150.017,0,0,0.196414,-168.212,0.196414,11.7883
3,1380,251.869,-150.02,0,0,0.196425,-168.214,0.196425,11.7856
3,1440,251.871,-150.023,0,0,0.196425,-168.218,0.196425,11.7824
3,1500,251.746,-150.001,0,0,0.19652,-168.198,0.19652,11.8025
3,1560,251.726,-150.001,0,0,0.196537,-168.196,0.196537,11.8043
3,1620,252.179,-149.911,0,0,0.196186,-168.106,0.196186,11.8942
3,1680,252.193,-149.908,0,0,0.196175,-168.103,0.196175,11.8968
3,1740,252.205,-149.906,0,0,0.196165,-168.101,0.196165,11.8992
3,1800,252.191,-149.908,0,0,0.196174,-168.103,0.196174,11.8969
3,1860,252.135,-149.906,0,0,0.196218,-168.101,0.196218,11.8991
3,1920,252.16,-149.898,0,0,0.196201,-168.094,0.196201,11.9063
3,1980,252.17,-149.892,0,0,0.196193,-168.088,0.196193,11.9124
3,2040,252.17,-149.898,0,0,0.196192,-168.093,0.196192,11.9074
3,2100,252.146,-149.903,0,0,0.196209,-168.097,0.196209,11.9028
3,2160,252.212,-149.894,0,0,0.19616,-168.089,0.19616,11.9109
3,2220,252.212,-149.893,0,0,0.196159,-168.088,0.196159,11.9119
3,2280,252.136,-149.882,0,0,0.196216,-168.078,0.196216,11.9223
3,2340,252.005,-149.881,0,0,0.196316,-168.076,0.196316,11.9237
3,2400,252.087,-149.884,0,0,0.196258,-168.079,0.196258,11.9212
3,2460,251.999,-149.882,0,0,0.196322,-168.077,0.196322,11.9229
3,2520,252.012,-149.886,0,0,0.196315,-168.08,0.196315,11.9199
3,2580,252.073,-149.9,0,0,0.196268,-168.094,0.196268,11.9064
3,2640,251.985,-149.897,0,0,0.196332,-168.092,0.196332,11.9077
3,2700,252.022,-149.9,0,0,0.196308,-168.095,0.196308,11.9051
3,2760,251.999,-149.898,0,0,0.196324,-168.093,0.196324,11.9072
3,2820,251.536,-149.995,0,0,0.196684,-168.189,0.196684,11.8108
3,2880,251.489,-149.988,0,0,0.196722,-168.183,0.196722,11.8172
3,2940,251.488,-149.987,0,0,0.196723,-168.182,0.196723,11.818
3,3000,251.476,-149.99,0,0,0.196733,-168.184,0.196733,11.8157
3,3060,251.44,-149.989,0,0,0.19676,-168.184,0.19676,11.8162
3,3120,251.427,-149.994,0,0,0.196771,-168.188,0.196771,11.8116
3,3180,251.464,-150,0,0,0.196744,-168.195,0.196744,11.8053
3,3240,251.402,-150,0,0,0.196789,-168.195,0.196789,11.8053
3,3300,251.373,-149.995,0,0,0.196813,-168.19,0.196813,11.8096
3,3360,251.523,-150.008,0,0,0.196701,-168.202,0.196701,11.798
3,3420,251.54,-150.005,0,0,0.196684,-168.2,0.196684,11.8
3,3480,251.547,-150.013,0,0,0.196678,-168.207,0.196678,11.7932
3,3540,251.495,-150.019,0,0,0.196716,-168.213,0.196716,11.7868
4,0,251.472,-150.024,0,0,0.196735,-168.218,0.196735,11.7817
4,60,251.562,-150.047,0,0,0.196668,-168.24,0.196668,11.7599
4,120,251.646,-150.05,0,0,0.196603,-168.244,0.196603,11.7556
4,180,251.711,-150.048,0,0,0.196552,-168.243,0.196552,11.7572
4,240,251.512,-150.042,0,0,0.1967,-168.238,0.1967,11.7624
4,300,251.507,-150.038,0,0,0.196709,-168.233,0.196709,11.7672
4,360,251.629,-150.033,0,0,0.196618,-168.228,0.196618,11.7721
4,420,251.633,-150.037,0,0,0.196611,-168.232,0.196611,11.7683
4,480,251.671,-150.047,0,0,0.196583,-168.241,0.196583,11.7586
4,540,251.542,-150.042,0,0,0.975029,-168.237,0.975029,11.7633
4,600,251.542,-150.042,0,0,0.97504,-168.236,0.97504,11.7635
4,660,251.51,-150.041,0,0,0.975155,-168.236,0.975155,11.764
4,720,251.541,-150.045,0,0,0.975049,-168.239,0.975049,11.7607
4,780,251.594,-150.053,0,0,0.974847,-168.248,0.974847,11.7525
4,840,251.649,-150.045,0,0,0.974636,-168.24,0.974636,11.7599
4,900,251.644,-150.038,0,0,0.974644,-168.233,0.974644,11.7667
4,960,251.597,-150.032,0,0,0.974822,-168.227,0.974822,11.7728
4,1020,251.61,-150.033,0,0,0.974778,-168.228,0.974778,11.7725
4,1080,251.615,-150.025,0,0,0.974759,-168.22,0.974759,11.7799
4,1140,251.615,-150.025,0,0,0.974756,-168.219,0.974756,11.7805
4,1200,251.622,-150.015,0,0,0.974733,-168.21,0.974733,11.7896
4,1260,251.655,-150.015,0,0,0.974607,-168.21,0.974607,11.7903
4,1320,251.66,-150.021,0,0,0.974581,-168.216,0.974581,11.7843
4,1380,251.666,-150.016,0,0,0.974557,-168.211,0.974557,11.7886
4,1440,251.74,-150.021,0,0,0.974279,-168.216,0.974279,11.7843
4,1500,251.774,-150.043,0,0,0.974145,-168.236,0.974145,11.7639
4,1560,251.869,-150.049,0,0,0.973783,-168.243,0.973783,11.7568
4,1620,251.873,-150.054,0,0,0.973757,-168.248,0.973757,11.7517
4,1680,251.848,-150.059,0,0,0.973845,-168.253,0.973845,11.7466
4,1740,251.891,-150.057,0,0,0.973699,-168.252,0.973699,11.7478
4,1800,251.906,-150.037,0,0,0.973634,-168.232,0.973634,11.7675
4,1860,252.067,-150.046,0,0,0.196274,-168.24,0.196274,11.76
4,1920,251.881,-150.04,0,0,0.196412,-168.235,0.196412,11.7651
4,1980,251.858,-150.033,0,0,0.196435,-168.229,0.196435,11.7713
4,2040,251.842,-150.036,0,0,0.196446,-168.231,0.196446,11.7692
4,2100,251.848,-150.026,0,0,0.196444,-168.222,0.196444,11.7782
4,2160,251.864,-150.023,0,0,0.196431,-168.218,0.196431,11.7819
4,2220,251.866,-150.025,0,0,0.196429,-168.22,0.196429,11.7803
4,2280,251.857,-150.042,0,0,0.196435,-168.235,0.196435,11.7647
4,2340,251.721,-150.029,0,0,0.196539,-168.224,0.196539,11.7755
4,2400,251.66,-150.031,0,0,0.196588,-168.226,0.196588,11.7743
4,2460,251.66,-150.031,0,0,0.19659,-168.226,0.19659,11.7742
4,2520,251.673,-150.022,0,0,0.196581,-168.217,0.196581,11.7829
4,2580,251.655,-150.018,0,0,0.196592,-168.213,0.196592,11.7869
4,2640,251.647,-150.008,0,0,0.1966,-168.204,0.1966,11.7964
4,2700,251.613,-150.012,0,0,0.196625,-168.207,0.196625,11.7929
4,2760,251.613,-150.012,0,0,0.196626,-168.207,0.196626,11.7927
4,2820,251.605,-150.011,0,0,0.196632,-168.206,0.196632,11.7945
4,2880,251.59,-150.01,0,0,0.196643,-168.205,0.196643,11.7953
4,2940,251.481,-150.008,0,0,0.196725,-168.203,0.196725,11.7965
4,3000,251.568,-150.011,0,0,0.196663,-168.206,0.196663,11.7939
4,3060,251.489,-150.009,0,0,0.19672,-168.204,0.19672,11.7955
4,3120,251.504,-150.02,0,0,0.196711,-168.214,0.196711,11.7857
4,3180,251.54,-150.024,0,0,0.196685,-168.218,0.196685,11.7816
4,3240,251.573,-150.028,0,0,0.196658,-168.223,0.196658,11.7772
4,3300,251.584,-150.033,0,0,0.196649,-168.228,0.196649,11.7722
4,3360,251.577,-150.033,0,0,0.196654,-168.228,0.196654,11.7719
4,3420,251.495,-150.033,0,0,0.196716,-168.228,0.196716,11.7719
4,3480,251.452,-150.038,0,0,0.19675,-168.232,0.19675,11.7678
4,3540,251.44,-150.039,0,0,0.19676,-168.234,0.19676,11.7663
5,0,251.391,-150.023,0,0,0.196798,-168.219,0.196798,11.7813
5,60,251.369,-150.014,0,0,0.196816,-168.209,0.196816,11.791
5,120,251.414,-150.018,0,0,0.196783,-168.213,0.196783,11.7871
5,180,251.415,-150.019,0,0,0.196781,-168.214,0.196781,11.7863
5,240,251.299,-150.016,0,0,0.196868,-168.211,0.196868,11.7892
5,300,251.179,-150.01,0,0,0.196963,-168.206,0.196963,11.7942
5,360,251.215,-150.011,0,0,0.196939,-168.206,0.196939,11.7938
5,420,251.259,-150.007,0,0,0.196905,-168.202,0.196905,11.7978
5,480,251.267,-150.006,0,0,0.196897,-168.201,0.196897,11.7986
5,540,251.288,-149.998,0,0,0.196882,-168.194,0.196882,11.8063
5,600,251.31,-150.003,0,0,0.196864,-168.198,0.196864,11.8023
5,660,251.4,-149.993,0,0,0.196796,-168.189,0.196796,11.8112
5,720,251.387,-149.996,0,0,0.196802,-168.19,0.196802,11.8095
5,780,251.434,-150.005,0,0,0.196767,-168.199,0.196767,11.8007
5,840,251.476,-150.007,0,0,0.196734,-168.201,0.196734,11.7986
5,900,251.45,-150.016,0,0,0.196752,-168.21,0.196752,11.7898
5,960,251.485,-150.008,0,0,0.196728,-168.203,0.196728,11.7965
5,1020,251.419,-150.007,0,0,0.196776,-168.202,0.196776,11.7979
5,1080,251.43,-150.005,0,0,0.19677,-168.2,0.19677,11.7996
5,1140,251.547,-150.003,0,0,0.196682,-168.198,0.196682,11.8025
5,1200,251.568,-149.998,0,0,0.196662,-168.193,0.196662,11.8066
5,1260,251.667,-149.998,0,0,0.196587,-168.193,0.196587,11.8067
